
T34CC 000:270 SEGGER J-Link V4.94j Log File (0000ms, 0259ms total)
T34CC 000:270 DLL Compiled: Dec 10 2014 13:52:41 (0000ms, 0259ms total)
T34CC 000:270 Logging started @ 2017-12-20 17:41 (0000ms, 0259ms total)
T34CC 000:270 JLINK_SetWarnOutHandler(...) (0000ms, 0259ms total)
T34CC 000:270 JLINK_OpenEx(...)
Firmware: J-Link ARM-OB STM32 compiled Aug 22 2012 19:52:04
Hardware: V7.00
S/N: 20090928
Feature(s): RDI,FlashDL,FlashBP,JFlash,GDBFull  returns O.K. (0258ms, 0517ms total)
T34CC 000:528 JLINK_SetErrorOutHandler(...) (0000ms, 0517ms total)
T34CC 000:528 JLINK_ExecCommand("ProjectFile = "D:\研究室資料\NRF51822 Data\SDK\nRF5_SDK_12.3.0_d7731ad\examples\ble_peripheral\ble_app_uart_with_spi\pca10028\s130\arm5_no_packs\JLinkSettings.ini"", ...)  returns 0x00 (0000ms, 0517ms total)
T34CC 000:536 JLINK_ExecCommand("Device = nRF51422_xxAC", ...)Device "NRF51422_XXAC" selected.  returns 0x00 (0003ms, 0520ms total)
T34CC 000:539 JLINK_ExecCommand("DisableConnectionTimeout", ...)  returns 0x01 (0000ms, 0520ms total)
T34CC 000:539 JLINK_GetHardwareVersion()  returns 0x11170 (0000ms, 0520ms total)
T34CC 000:539 JLINK_GetDLLVersion()  returns 49410 (0000ms, 0520ms total)
T34CC 000:539 JLINK_GetFirmwareString(...) (0000ms, 0520ms total)
T34CC 000:549 JLINK_GetDLLVersion()  returns 49410 (0000ms, 0520ms total)
T34CC 000:549 JLINK_GetCompileDateTime() (0000ms, 0520ms total)
T34CC 000:552 JLINK_GetFirmwareString(...) (0000ms, 0520ms total)
T34CC 000:554 JLINK_GetHardwareVersion()  returns 0x11170 (0000ms, 0520ms total)
T34CC 000:564 JLINK_TIF_Select(JLINKARM_TIF_SWD)  returns 0x00 (0001ms, 0521ms total)
T34CC 000:565 JLINK_SetMaxSpeed() >0x108 TIF>Found SWD-DP with ID 0x0BB11477 >0x35 TIF> >0x0D TIF> >0x28 TIF> >0x0D TIF> >0x28 TIF> >0x35 TIF> >0x0D TIF> >0x28 TIF> >0x35 TIF> >0x35 TIF> >0x35 TIF> >0x0D TIF> >0x28 TIF> >0x0D TIF> >0x28 TIF> >0x0D TIF> >0x28 TIF> >0x35 TIF> >0x35 TIF> >0x35 TIF> >0x0D TIF> >0x28 TIF> >0x0D TIF> >0x28 TIF> >0x35 TIF> >0x0D TIF> >0x28 TIF> >0x0D TIF> >0x28 TIF> >0x0D TIF> >0x28 TIF> >0x35 TIF> >0x35 TIF> >0x0D TIF> >0x28 TIF> >0x35 TIF> >0x35 TIF>
Found Cortex-M0 r0p0, Little endian. -- CPU_WriteMem(4 bytes @ 0xE0002000) -- CPU_ReadMem(4 bytes @ 0xE000EDF0) -- CPU_WriteMem(4 bytes @ 0xE000EDF0) -- CPU_ReadMem(4 bytes @ 0xE0002000)FPUnit: 4 code (BP) slots and 0 literal slots -- CPU_ReadMem(4 bytes @ 0xE000EDFC) -- CPU_WriteMem(4 bytes @ 0xE000EDFC) -- CPU_ReadMem(4 bytes @ 0xE0001000) -- CPU_WriteMem(4 bytes @ 0xE0001000) -- CPU_ReadMem(4 bytes @ 0xE00FF018) (0046ms, 0567ms total)
T34CC 000:611 JLINK_GetSpeed()  returns 0x7D0 (0000ms, 0567ms total)
T34CC 000:611 JLINK_GetId() >0x35 TIF>  returns 0x0BB11477 (0001ms, 0568ms total)
T34CC 000:612 JLINK_CORE_GetFound()  returns 0x60000FF (0000ms, 0568ms total)
T34CC 000:614 JLINK_ReadMem (0xE00FFFF0, 0x0010 Bytes, ...) -- CPU is running -- CPU_ReadMem(16 bytes @ 0xE00FFFF0) - Data: 0D 00 00 00 10 00 00 00 05 00 00 00 B1 00 00 00  returns 0x00 (0001ms, 0569ms total)
T34CC 000:615 JLINK_ReadMem (0xE00FFFD0, 0x0020 Bytes, ...) -- CPU is running -- CPU_ReadMem(32 bytes @ 0xE00FFFD0) - Data: 04 00 00 00 00 00 00 00 00 00 00 00 00 00 00 00 ...  returns 0x00 (0001ms, 0570ms total)
T34CC 000:616 JLINK_ReadMem (0xE00FF000, 0x0018 Bytes, ...) -- CPU is running -- CPU_ReadMem(24 bytes @ 0xE00FF000) - Data: 03 F0 F0 FF 03 20 F0 FF 03 30 F0 FF 00 00 00 00 ...  returns 0x00 (0001ms, 0571ms total)
T34CC 000:617 JLINK_CORE_GetFound()  returns 0x60000FF (0000ms, 0571ms total)
T34CC 000:617 JLINK_ReadMemU32(0xE000ED00, 0x0001 Items, ...) -- CPU is running -- CPU_ReadMem(4 bytes @ 0xE000ED00) - Data: 00 C2 0C 41  returns 0x01 (0000ms, 0571ms total)
T34CC 000:617 JLINK_SetResetType(JLINKARM_RESET_TYPE_NORMAL)  returns JLINKARM_RESET_TYPE_NORMAL (0000ms, 0571ms total)
T34CC 000:617 JLINK_Reset() -- CPU is running -- CPU_WriteMem(4 bytes @ 0xE000EDF0) -- CPU is running -- CPU_WriteMem(4 bytes @ 0xE000EDFC) >0x35 TIF> -- CPU is running -- CPU_WriteMem(4 bytes @ 0xE000ED0C) -- CPU is running -- CPU_ReadMem(4 bytes @ 0xE000EDF0) -- CPU is running -- CPU_ReadMem(4 bytes @ 0xE000EDF0) -- CPU is running -- CPU_WriteMem(4 bytes @ 0xE000EDF0) -- CPU is running -- CPU_WriteMem(4 bytes @ 0xE000EDFC) -- CPU is running -- CPU_ReadMem(4 bytes @ 0xE000EDF0)
 -- CPU_WriteMem(4 bytes @ 0xE0002000) -- CPU_ReadMem(4 bytes @ 0xE000EDFC) -- CPU_ReadMem(4 bytes @ 0xE0001000) -- CPU_WriteMem(4 bytes @ 0xE0001000) (0019ms, 0590ms total)
T34CC 000:636 JLINK_Halt()  returns 0x00 (0000ms, 0590ms total)
T34CC 000:636 JLINK_IsHalted()  returns TRUE (0000ms, 0590ms total)
T34CC 000:636 JLINK_ReadMemU32(0xE000EDF0, 0x0001 Items, ...) -- CPU_ReadMem(4 bytes @ 0xE000EDF0) - Data: 03 00 03 00  returns 0x01 (0001ms, 0591ms total)
T34CC 000:637 JLINK_WriteU32(0xE000EDF0, 0xA05F0003) -- CPU_WriteMem(4 bytes @ 0xE000EDF0)  returns 0x00 (0000ms, 0591ms total)
T34CC 000:637 JLINK_WriteU32(0xE000EDFC, 0x01000000) -- CPU_WriteMem(4 bytes @ 0xE000EDFC)  returns 0x00 (0001ms, 0592ms total)
T34CC 000:645 JLINK_GetHWStatus(...)  returns 0x00 (0001ms, 0593ms total)
T34CC 000:653 JLINK_GetNumBPUnits(Type = 0xFFFFFF00)  returns 0x04 (0001ms, 0594ms total)
T34CC 000:654 JLINK_GetNumBPUnits(Type = 0xF0)  returns 0x2000 (0000ms, 0594ms total)
T34CC 000:654 JLINK_GetNumWPUnits()  returns 0x02 (0000ms, 0594ms total)
T34CC 000:659 JLINK_GetSpeed()  returns 0x7D0 (0000ms, 0594ms total)
T34CC 000:663 JLINK_ReadMemU32(0xE000E004, 0x0001 Items, ...) -- CPU_ReadMem(4 bytes @ 0xE000E004) - Data: 00 00 00 00  returns 0x01 (0001ms, 0595ms total)
T34CC 000:664 JLINK_Halt()  returns 0x00 (0000ms, 0595ms total)
T34CC 000:664 JLINK_IsHalted()  returns TRUE (0000ms, 0595ms total)
T34CC 000:665 JLINK_WriteMem(0x20000000, 0x0478 Bytes, ...) - Data: 00 BE 0A E0 0D 78 2D 06 68 40 08 24 40 00 00 D3 ... -- CPU_WriteMem(1144 bytes @ 0x20000000)  returns 0x478 (0014ms, 0609ms total)
T34CC 000:680 JLINK_WriteReg(R0, 0x00000000)  returns 0x00 (0000ms, 0609ms total)
T34CC 000:680 JLINK_WriteReg(R1, 0x00F42400)  returns 0x00 (0000ms, 0609ms total)
T34CC 000:680 JLINK_WriteReg(R2, 0x00000001)  returns 0x00 (0000ms, 0609ms total)
T34CC 000:680 JLINK_WriteReg(R3, 0x00000000)  returns 0x00 (0000ms, 0609ms total)
T34CC 000:680 JLINK_WriteReg(R4, 0x00000000)  returns 0x00 (0000ms, 0609ms total)
T34CC 000:680 JLINK_WriteReg(R5, 0x00000000)  returns 0x00 (0000ms, 0609ms total)
T34CC 000:680 JLINK_WriteReg(R6, 0x00000000)  returns 0x00 (0000ms, 0609ms total)
T34CC 000:680 JLINK_WriteReg(R7, 0x00000000)  returns 0x00 (0000ms, 0609ms total)
T34CC 000:680 JLINK_WriteReg(R8, 0x00000000)  returns 0x00 (0000ms, 0609ms total)
T34CC 000:680 JLINK_WriteReg(R9, 0x20000474)  returns 0x00 (0000ms, 0609ms total)
T34CC 000:680 JLINK_WriteReg(R10, 0x00000000)  returns 0x00 (0000ms, 0609ms total)
T34CC 000:680 JLINK_WriteReg(R11, 0x00000000)  returns 0x00 (0000ms, 0609ms total)
T34CC 000:680 JLINK_WriteReg(R12, 0x00000000)  returns 0x00 (0000ms, 0609ms total)
T34CC 000:680 JLINK_WriteReg(R13 (SP), 0x20002000)  returns 0x00 (0000ms, 0609ms total)
T34CC 000:680 JLINK_WriteReg(R14, 0x20000001)  returns 0x00 (0000ms, 0609ms total)
T34CC 000:680 JLINK_WriteReg(R15 (PC), 0x20000028)  returns 0x00 (0000ms, 0609ms total)
T34CC 000:680 JLINK_WriteReg(XPSR, 0x01000000)  returns 0x00 (0000ms, 0609ms total)
T34CC 000:680 JLINK_WriteReg(MSP, 0x20002000)  returns 0x00 (0000ms, 0609ms total)
T34CC 000:680 JLINK_WriteReg(PSP, 0x20002000)  returns 0x00 (0000ms, 0609ms total)
T34CC 000:680 JLINK_WriteReg(CFBP, 0x00000000)  returns 0x00 (0000ms, 0609ms total)
T34CC 000:680 JLINK_SetBPEx(Addr = 0x20000000, Type = 0xFFFFFFF2) -- CPU_ReadMem(2 bytes @ 0x20000000)  returns 0x00000001 (0000ms, 0609ms total)
T34CC 000:680 JLINK_Go() -- CPU_WriteMem(2 bytes @ 0x20000000) -- CPU_WriteMem(4 bytes @ 0xE0002008) -- CPU_WriteMem(4 bytes @ 0xE000200C) -- CPU_WriteMem(4 bytes @ 0xE0002010) -- CPU_WriteMem(4 bytes @ 0xE0002014) -- CPU_WriteMem(4 bytes @ 0xE0001004) (0007ms, 0616ms total)
T34CC 000:687 JLINK_IsHalted() -- CPU_ReadMem(2 bytes @ 0x20000000)  returns TRUE (0003ms, 0619ms total)
T34CC 000:690 JLINK_ReadReg(R15 (PC))  returns 0x20000000 (0000ms, 0616ms total)
T34CC 000:690 JLINK_ClrBPEx(BPHandle = 0x00000001)  returns 0x00 (0000ms, 0616ms total)
T34CC 000:690 JLINK_ReadReg(R0)  returns 0x00000000 (0000ms, 0616ms total)
T34CC 000:690 JLINK_WriteReg(R0, 0x0001B000)  returns 0x00 (0000ms, 0616ms total)
T34CC 000:690 JLINK_WriteReg(R1, 0x00000400)  returns 0x00 (0000ms, 0616ms total)
T34CC 000:690 JLINK_WriteReg(R2, 0x000000FF)  returns 0x00 (0000ms, 0616ms total)
T34CC 000:690 JLINK_WriteReg(R3, 0x00000000)  returns 0x00 (0001ms, 0617ms total)
T34CC 000:691 JLINK_WriteReg(R4, 0x00000000)  returns 0x00 (0000ms, 0617ms total)
T34CC 000:691 JLINK_WriteReg(R5, 0x00000000)  returns 0x00 (0000ms, 0617ms total)
T34CC 000:691 JLINK_WriteReg(R6, 0x00000000)  returns 0x00 (0000ms, 0617ms total)
T34CC 000:691 JLINK_WriteReg(R7, 0x00000000)  returns 0x00 (0000ms, 0617ms total)
T34CC 000:691 JLINK_WriteReg(R8, 0x00000000)  returns 0x00 (0000ms, 0617ms total)
T34CC 000:691 JLINK_WriteReg(R9, 0x20000474)  returns 0x00 (0000ms, 0617ms total)
T34CC 000:691 JLINK_WriteReg(R10, 0x00000000)  returns 0x00 (0000ms, 0617ms total)
T34CC 000:691 JLINK_WriteReg(R11, 0x00000000)  returns 0x00 (0000ms, 0617ms total)
T34CC 000:691 JLINK_WriteReg(R12, 0x00000000)  returns 0x00 (0000ms, 0617ms total)
T34CC 000:691 JLINK_WriteReg(R13 (SP), 0x20002000)  returns 0x00 (0000ms, 0617ms total)
T34CC 000:691 JLINK_WriteReg(R14, 0x20000001)  returns 0x00 (0000ms, 0617ms total)
T34CC 000:691 JLINK_WriteReg(R15 (PC), 0x20000188)  returns 0x00 (0000ms, 0617ms total)
T34CC 000:691 JLINK_WriteReg(XPSR, 0x01000000)  returns 0x00 (0000ms, 0617ms total)
T34CC 000:691 JLINK_WriteReg(MSP, 0x20002000)  returns 0x00 (0000ms, 0617ms total)
T34CC 000:691 JLINK_WriteReg(PSP, 0x20002000)  returns 0x00 (0000ms, 0617ms total)
T34CC 000:691 JLINK_WriteReg(CFBP, 0x00000000)  returns 0x00 (0000ms, 0617ms total)
T34CC 000:691 JLINK_SetBPEx(Addr = 0x20000000, Type = 0xFFFFFFF2)  returns 0x00000002 (0000ms, 0617ms total)
T34CC 000:691 JLINK_Go() (0002ms, 0619ms total)
T34CC 000:693 JLINK_IsHalted() -- CPU_ReadMem(2 bytes @ 0x20000000)  returns TRUE (0003ms, 0622ms total)
T34CC 000:696 JLINK_ReadReg(R15 (PC))  returns 0x20000000 (0000ms, 0619ms total)
T34CC 000:696 JLINK_ClrBPEx(BPHandle = 0x00000002)  returns 0x00 (0000ms, 0619ms total)
T34CC 000:696 JLINK_ReadReg(R0)  returns 0x00000001 (0000ms, 0619ms total)
T34CC 000:696 JLINK_WriteReg(R0, 0x0001B000)  returns 0x00 (0000ms, 0619ms total)
T34CC 000:696 JLINK_WriteReg(R1, 0x00000400)  returns 0x00 (0000ms, 0619ms total)
T34CC 000:696 JLINK_WriteReg(R2, 0x000000FF)  returns 0x00 (0000ms, 0619ms total)
T34CC 000:696 JLINK_WriteReg(R3, 0x00000000)  returns 0x00 (0000ms, 0619ms total)
T34CC 000:696 JLINK_WriteReg(R4, 0x00000000)  returns 0x00 (0000ms, 0619ms total)
T34CC 000:696 JLINK_WriteReg(R5, 0x00000000)  returns 0x00 (0000ms, 0619ms total)
T34CC 000:696 JLINK_WriteReg(R6, 0x00000000)  returns 0x00 (0000ms, 0619ms total)
T34CC 000:696 JLINK_WriteReg(R7, 0x00000000)  returns 0x00 (0000ms, 0619ms total)
T34CC 000:696 JLINK_WriteReg(R8, 0x00000000)  returns 0x00 (0000ms, 0619ms total)
T34CC 000:696 JLINK_WriteReg(R9, 0x20000474)  returns 0x00 (0000ms, 0619ms total)
T34CC 000:696 JLINK_WriteReg(R10, 0x00000000)  returns 0x00 (0000ms, 0619ms total)
T34CC 000:696 JLINK_WriteReg(R11, 0x00000000)  returns 0x00 (0000ms, 0619ms total)
T34CC 000:696 JLINK_WriteReg(R12, 0x00000000)  returns 0x00 (0000ms, 0619ms total)
T34CC 000:696 JLINK_WriteReg(R13 (SP), 0x20002000)  returns 0x00 (0000ms, 0619ms total)
T34CC 000:696 JLINK_WriteReg(R14, 0x20000001)  returns 0x00 (0000ms, 0619ms total)
T34CC 000:696 JLINK_WriteReg(R15 (PC), 0x20000104)  returns 0x00 (0000ms, 0619ms total)
T34CC 000:696 JLINK_WriteReg(XPSR, 0x01000000)  returns 0x00 (0000ms, 0619ms total)
T34CC 000:696 JLINK_WriteReg(MSP, 0x20002000)  returns 0x00 (0000ms, 0619ms total)
T34CC 000:696 JLINK_WriteReg(PSP, 0x20002000)  returns 0x00 (0000ms, 0619ms total)
T34CC 000:696 JLINK_WriteReg(CFBP, 0x00000000)  returns 0x00 (0000ms, 0619ms total)
T34CC 000:696 JLINK_SetBPEx(Addr = 0x20000000, Type = 0xFFFFFFF2)  returns 0x00000003 (0000ms, 0619ms total)
T34CC 000:696 JLINK_Go() (0002ms, 0621ms total)
T34CC 000:698 JLINK_IsHalted()  returns FALSE (0001ms, 0622ms total)
T34CC 000:756 JLINK_IsHalted() -- CPU_ReadMem(2 bytes @ 0x20000000)  returns TRUE (0004ms, 0625ms total)
T34CC 000:760 JLINK_ReadReg(R15 (PC))  returns 0x20000000 (0000ms, 0621ms total)
T34CC 000:760 JLINK_ClrBPEx(BPHandle = 0x00000003)  returns 0x00 (0000ms, 0621ms total)
T34CC 000:760 JLINK_ReadReg(R0)  returns 0x00000000 (0000ms, 0621ms total)
T34CC 000:760 JLINK_WriteReg(R0, 0x0001B400)  returns 0x00 (0000ms, 0621ms total)
T34CC 000:760 JLINK_WriteReg(R1, 0x00000400)  returns 0x00 (0000ms, 0621ms total)
T34CC 000:760 JLINK_WriteReg(R2, 0x000000FF)  returns 0x00 (0000ms, 0621ms total)
T34CC 000:760 JLINK_WriteReg(R3, 0x00000000)  returns 0x00 (0000ms, 0621ms total)
T34CC 000:760 JLINK_WriteReg(R4, 0x00000000)  returns 0x00 (0000ms, 0621ms total)
T34CC 000:760 JLINK_WriteReg(R5, 0x00000000)  returns 0x00 (0000ms, 0621ms total)
T34CC 000:760 JLINK_WriteReg(R6, 0x00000000)  returns 0x00 (0000ms, 0621ms total)
T34CC 000:760 JLINK_WriteReg(R7, 0x00000000)  returns 0x00 (0000ms, 0621ms total)
T34CC 000:760 JLINK_WriteReg(R8, 0x00000000)  returns 0x00 (0000ms, 0621ms total)
T34CC 000:760 JLINK_WriteReg(R9, 0x20000474)  returns 0x00 (0000ms, 0621ms total)
T34CC 000:760 JLINK_WriteReg(R10, 0x00000000)  returns 0x00 (0000ms, 0621ms total)
T34CC 000:760 JLINK_WriteReg(R11, 0x00000000)  returns 0x00 (0000ms, 0621ms total)
T34CC 000:760 JLINK_WriteReg(R12, 0x00000000)  returns 0x00 (0000ms, 0621ms total)
T34CC 000:760 JLINK_WriteReg(R13 (SP), 0x20002000)  returns 0x00 (0000ms, 0621ms total)
T34CC 000:760 JLINK_WriteReg(R14, 0x20000001)  returns 0x00 (0000ms, 0621ms total)
T34CC 000:760 JLINK_WriteReg(R15 (PC), 0x20000188)  returns 0x00 (0000ms, 0621ms total)
T34CC 000:760 JLINK_WriteReg(XPSR, 0x01000000)  returns 0x00 (0000ms, 0621ms total)
T34CC 000:760 JLINK_WriteReg(MSP, 0x20002000)  returns 0x00 (0000ms, 0621ms total)
T34CC 000:760 JLINK_WriteReg(PSP, 0x20002000)  returns 0x00 (0000ms, 0621ms total)
T34CC 000:760 JLINK_WriteReg(CFBP, 0x00000000)  returns 0x00 (0000ms, 0621ms total)
T34CC 000:760 JLINK_SetBPEx(Addr = 0x20000000, Type = 0xFFFFFFF2)  returns 0x00000004 (0000ms, 0621ms total)
T34CC 000:760 JLINK_Go() (0002ms, 0623ms total)
T34CC 000:762 JLINK_IsHalted() -- CPU_ReadMem(2 bytes @ 0x20000000)  returns TRUE (0004ms, 0627ms total)
T34CC 000:766 JLINK_ReadReg(R15 (PC))  returns 0x20000000 (0000ms, 0623ms total)
T34CC 000:766 JLINK_ClrBPEx(BPHandle = 0x00000004)  returns 0x00 (0000ms, 0623ms total)
T34CC 000:766 JLINK_ReadReg(R0)  returns 0x00000001 (0000ms, 0623ms total)
T34CC 000:766 JLINK_WriteReg(R0, 0x0001B400)  returns 0x00 (0000ms, 0623ms total)
T34CC 000:766 JLINK_WriteReg(R1, 0x00000400)  returns 0x00 (0000ms, 0623ms total)
T34CC 000:766 JLINK_WriteReg(R2, 0x000000FF)  returns 0x00 (0000ms, 0623ms total)
T34CC 000:766 JLINK_WriteReg(R3, 0x00000000)  returns 0x00 (0000ms, 0623ms total)
T34CC 000:766 JLINK_WriteReg(R4, 0x00000000)  returns 0x00 (0000ms, 0623ms total)
T34CC 000:766 JLINK_WriteReg(R5, 0x00000000)  returns 0x00 (0000ms, 0623ms total)
T34CC 000:766 JLINK_WriteReg(R6, 0x00000000)  returns 0x00 (0000ms, 0623ms total)
T34CC 000:766 JLINK_WriteReg(R7, 0x00000000)  returns 0x00 (0000ms, 0623ms total)
T34CC 000:766 JLINK_WriteReg(R8, 0x00000000)  returns 0x00 (0000ms, 0623ms total)
T34CC 000:766 JLINK_WriteReg(R9, 0x20000474)  returns 0x00 (0000ms, 0623ms total)
T34CC 000:766 JLINK_WriteReg(R10, 0x00000000)  returns 0x00 (0000ms, 0623ms total)
T34CC 000:766 JLINK_WriteReg(R11, 0x00000000)  returns 0x00 (0000ms, 0623ms total)
T34CC 000:766 JLINK_WriteReg(R12, 0x00000000)  returns 0x00 (0000ms, 0623ms total)
T34CC 000:766 JLINK_WriteReg(R13 (SP), 0x20002000)  returns 0x00 (0000ms, 0623ms total)
T34CC 000:766 JLINK_WriteReg(R14, 0x20000001)  returns 0x00 (0000ms, 0623ms total)
T34CC 000:766 JLINK_WriteReg(R15 (PC), 0x20000104)  returns 0x00 (0000ms, 0623ms total)
T34CC 000:766 JLINK_WriteReg(XPSR, 0x01000000)  returns 0x00 (0000ms, 0623ms total)
T34CC 000:766 JLINK_WriteReg(MSP, 0x20002000)  returns 0x00 (0000ms, 0623ms total)
T34CC 000:766 JLINK_WriteReg(PSP, 0x20002000)  returns 0x00 (0000ms, 0623ms total)
T34CC 000:766 JLINK_WriteReg(CFBP, 0x00000000)  returns 0x00 (0000ms, 0623ms total)
T34CC 000:766 JLINK_SetBPEx(Addr = 0x20000000, Type = 0xFFFFFFF2)  returns 0x00000005 (0000ms, 0623ms total)
T34CC 000:766 JLINK_Go() (0001ms, 0624ms total)
T34CC 000:767 JLINK_IsHalted()  returns FALSE (0001ms, 0625ms total)
T34CC 000:771 JLINK_IsHalted()  returns FALSE (0001ms, 0625ms total)
T34CC 000:773 JLINK_IsHalted()  returns FALSE (0001ms, 0625ms total)
T34CC 000:776 JLINK_IsHalted()  returns FALSE (0000ms, 0624ms total)
T34CC 000:777 JLINK_IsHalted()  returns FALSE (0000ms, 0624ms total)
T34CC 000:783 JLINK_IsHalted()  returns FALSE (0000ms, 0624ms total)
T34CC 000:785 JLINK_IsHalted()  returns FALSE (0000ms, 0624ms total)
T34CC 000:786 JLINK_IsHalted()  returns FALSE (0000ms, 0624ms total)
T34CC 000:788 JLINK_IsHalted()  returns FALSE (0000ms, 0624ms total)
T34CC 000:790 JLINK_IsHalted() -- CPU_ReadMem(2 bytes @ 0x20000000)  returns TRUE (0003ms, 0627ms total)
T34CC 000:793 JLINK_ReadReg(R15 (PC))  returns 0x20000000 (0000ms, 0624ms total)
T34CC 000:793 JLINK_ClrBPEx(BPHandle = 0x00000005)  returns 0x00 (0000ms, 0624ms total)
T34CC 000:793 JLINK_ReadReg(R0)  returns 0x00000000 (0000ms, 0624ms total)
T34CC 000:794 JLINK_WriteReg(R0, 0x0001B800)  returns 0x00 (0000ms, 0624ms total)
T34CC 000:794 JLINK_WriteReg(R1, 0x00000400)  returns 0x00 (0000ms, 0624ms total)
T34CC 000:794 JLINK_WriteReg(R2, 0x000000FF)  returns 0x00 (0000ms, 0624ms total)
T34CC 000:794 JLINK_WriteReg(R3, 0x00000000)  returns 0x00 (0000ms, 0624ms total)
T34CC 000:794 JLINK_WriteReg(R4, 0x00000000)  returns 0x00 (0000ms, 0624ms total)
T34CC 000:794 JLINK_WriteReg(R5, 0x00000000)  returns 0x00 (0000ms, 0624ms total)
T34CC 000:794 JLINK_WriteReg(R6, 0x00000000)  returns 0x00 (0000ms, 0624ms total)
T34CC 000:794 JLINK_WriteReg(R7, 0x00000000)  returns 0x00 (0000ms, 0624ms total)
T34CC 000:794 JLINK_WriteReg(R8, 0x00000000)  returns 0x00 (0000ms, 0624ms total)
T34CC 000:794 JLINK_WriteReg(R9, 0x20000474)  returns 0x00 (0000ms, 0624ms total)
T34CC 000:794 JLINK_WriteReg(R10, 0x00000000)  returns 0x00 (0000ms, 0624ms total)
T34CC 000:794 JLINK_WriteReg(R11, 0x00000000)  returns 0x00 (0000ms, 0624ms total)
T34CC 000:794 JLINK_WriteReg(R12, 0x00000000)  returns 0x00 (0000ms, 0624ms total)
T34CC 000:794 JLINK_WriteReg(R13 (SP), 0x20002000)  returns 0x00 (0000ms, 0624ms total)
T34CC 000:794 JLINK_WriteReg(R14, 0x20000001)  returns 0x00 (0000ms, 0624ms total)
T34CC 000:794 JLINK_WriteReg(R15 (PC), 0x20000188)  returns 0x00 (0000ms, 0624ms total)
T34CC 000:794 JLINK_WriteReg(XPSR, 0x01000000)  returns 0x00 (0000ms, 0624ms total)
T34CC 000:794 JLINK_WriteReg(MSP, 0x20002000)  returns 0x00 (0000ms, 0624ms total)
T34CC 000:794 JLINK_WriteReg(PSP, 0x20002000)  returns 0x00 (0000ms, 0624ms total)
T34CC 000:794 JLINK_WriteReg(CFBP, 0x00000000)  returns 0x00 (0000ms, 0624ms total)
T34CC 000:794 JLINK_SetBPEx(Addr = 0x20000000, Type = 0xFFFFFFF2)  returns 0x00000006 (0000ms, 0624ms total)
T34CC 000:794 JLINK_Go() (0001ms, 0625ms total)
T34CC 000:796 JLINK_IsHalted() -- CPU_ReadMem(2 bytes @ 0x20000000)  returns TRUE (0003ms, 0629ms total)
T34CC 000:799 JLINK_ReadReg(R15 (PC))  returns 0x20000000 (0000ms, 0626ms total)
T34CC 000:799 JLINK_ClrBPEx(BPHandle = 0x00000006)  returns 0x00 (0000ms, 0626ms total)
T34CC 000:799 JLINK_ReadReg(R0)  returns 0x00000001 (0000ms, 0626ms total)
T34CC 000:799 JLINK_WriteReg(R0, 0x0001B800)  returns 0x00 (0000ms, 0626ms total)
T34CC 000:799 JLINK_WriteReg(R1, 0x00000400)  returns 0x00 (0000ms, 0626ms total)
T34CC 000:799 JLINK_WriteReg(R2, 0x000000FF)  returns 0x00 (0000ms, 0626ms total)
T34CC 000:799 JLINK_WriteReg(R3, 0x00000000)  returns 0x00 (0000ms, 0626ms total)
T34CC 000:799 JLINK_WriteReg(R4, 0x00000000)  returns 0x00 (0000ms, 0626ms total)
T34CC 000:799 JLINK_WriteReg(R5, 0x00000000)  returns 0x00 (0000ms, 0626ms total)
T34CC 000:799 JLINK_WriteReg(R6, 0x00000000)  returns 0x00 (0000ms, 0626ms total)
T34CC 000:799 JLINK_WriteReg(R7, 0x00000000)  returns 0x00 (0000ms, 0626ms total)
T34CC 000:799 JLINK_WriteReg(R8, 0x00000000)  returns 0x00 (0000ms, 0626ms total)
T34CC 000:799 JLINK_WriteReg(R9, 0x20000474)  returns 0x00 (0000ms, 0626ms total)
T34CC 000:799 JLINK_WriteReg(R10, 0x00000000)  returns 0x00 (0000ms, 0626ms total)
T34CC 000:799 JLINK_WriteReg(R11, 0x00000000)  returns 0x00 (0000ms, 0626ms total)
T34CC 000:799 JLINK_WriteReg(R12, 0x00000000)  returns 0x00 (0000ms, 0626ms total)
T34CC 000:799 JLINK_WriteReg(R13 (SP), 0x20002000)  returns 0x00 (0000ms, 0626ms total)
T34CC 000:799 JLINK_WriteReg(R14, 0x20000001)  returns 0x00 (0000ms, 0626ms total)
T34CC 000:799 JLINK_WriteReg(R15 (PC), 0x20000104)  returns 0x00 (0000ms, 0626ms total)
T34CC 000:799 JLINK_WriteReg(XPSR, 0x01000000)  returns 0x00 (0000ms, 0626ms total)
T34CC 000:800 JLINK_WriteReg(MSP, 0x20002000)  returns 0x00 (0000ms, 0626ms total)
T34CC 000:800 JLINK_WriteReg(PSP, 0x20002000)  returns 0x00 (0000ms, 0626ms total)
T34CC 000:800 JLINK_WriteReg(CFBP, 0x00000000)  returns 0x00 (0000ms, 0626ms total)
T34CC 000:800 JLINK_SetBPEx(Addr = 0x20000000, Type = 0xFFFFFFF2)  returns 0x00000007 (0000ms, 0626ms total)
T34CC 000:800 JLINK_Go() (0001ms, 0627ms total)
T34CC 000:801 JLINK_IsHalted()  returns FALSE (0000ms, 0627ms total)
T34CC 000:804 JLINK_IsHalted()  returns FALSE (0000ms, 0627ms total)
T34CC 000:806 JLINK_IsHalted()  returns FALSE (0000ms, 0627ms total)
T34CC 000:808 JLINK_IsHalted()  returns FALSE (0000ms, 0627ms total)
T34CC 000:814 JLINK_IsHalted()  returns FALSE (0000ms, 0627ms total)
T34CC 000:816 JLINK_IsHalted()  returns FALSE (0000ms, 0627ms total)
T34CC 000:818 JLINK_IsHalted()  returns FALSE (0000ms, 0627ms total)
T34CC 000:820 JLINK_IsHalted()  returns FALSE (0000ms, 0627ms total)
T34CC 000:821 JLINK_IsHalted()  returns FALSE (0001ms, 0628ms total)
T34CC 000:823 JLINK_IsHalted() -- CPU_ReadMem(2 bytes @ 0x20000000)  returns TRUE (0004ms, 0631ms total)
T34CC 000:827 JLINK_ReadReg(R15 (PC))  returns 0x20000000 (0000ms, 0627ms total)
T34CC 000:827 JLINK_ClrBPEx(BPHandle = 0x00000007)  returns 0x00 (0000ms, 0627ms total)
T34CC 000:827 JLINK_ReadReg(R0)  returns 0x00000000 (0000ms, 0627ms total)
T34CC 000:827 JLINK_WriteReg(R0, 0x0001BC00)  returns 0x00 (0000ms, 0627ms total)
T34CC 000:827 JLINK_WriteReg(R1, 0x00000400)  returns 0x00 (0000ms, 0627ms total)
T34CC 000:827 JLINK_WriteReg(R2, 0x000000FF)  returns 0x00 (0000ms, 0627ms total)
T34CC 000:827 JLINK_WriteReg(R3, 0x00000000)  returns 0x00 (0000ms, 0627ms total)
T34CC 000:827 JLINK_WriteReg(R4, 0x00000000)  returns 0x00 (0000ms, 0627ms total)
T34CC 000:827 JLINK_WriteReg(R5, 0x00000000)  returns 0x00 (0000ms, 0627ms total)
T34CC 000:827 JLINK_WriteReg(R6, 0x00000000)  returns 0x00 (0000ms, 0627ms total)
T34CC 000:827 JLINK_WriteReg(R7, 0x00000000)  returns 0x00 (0000ms, 0627ms total)
T34CC 000:827 JLINK_WriteReg(R8, 0x00000000)  returns 0x00 (0000ms, 0627ms total)
T34CC 000:827 JLINK_WriteReg(R9, 0x20000474)  returns 0x00 (0000ms, 0627ms total)
T34CC 000:827 JLINK_WriteReg(R10, 0x00000000)  returns 0x00 (0000ms, 0627ms total)
T34CC 000:827 JLINK_WriteReg(R11, 0x00000000)  returns 0x00 (0000ms, 0627ms total)
T34CC 000:827 JLINK_WriteReg(R12, 0x00000000)  returns 0x00 (0000ms, 0627ms total)
T34CC 000:827 JLINK_WriteReg(R13 (SP), 0x20002000)  returns 0x00 (0000ms, 0627ms total)
T34CC 000:827 JLINK_WriteReg(R14, 0x20000001)  returns 0x00 (0000ms, 0627ms total)
T34CC 000:827 JLINK_WriteReg(R15 (PC), 0x20000188)  returns 0x00 (0000ms, 0627ms total)
T34CC 000:827 JLINK_WriteReg(XPSR, 0x01000000)  returns 0x00 (0000ms, 0627ms total)
T34CC 000:827 JLINK_WriteReg(MSP, 0x20002000)  returns 0x00 (0000ms, 0627ms total)
T34CC 000:827 JLINK_WriteReg(PSP, 0x20002000)  returns 0x00 (0000ms, 0627ms total)
T34CC 000:827 JLINK_WriteReg(CFBP, 0x00000000)  returns 0x00 (0000ms, 0627ms total)
T34CC 000:828 JLINK_SetBPEx(Addr = 0x20000000, Type = 0xFFFFFFF2)  returns 0x00000008 (0000ms, 0628ms total)
T34CC 000:828 JLINK_Go() (0001ms, 0629ms total)
T34CC 000:829 JLINK_IsHalted() -- CPU_ReadMem(2 bytes @ 0x20000000)  returns TRUE (0004ms, 0633ms total)
T34CC 000:833 JLINK_ReadReg(R15 (PC))  returns 0x20000000 (0000ms, 0629ms total)
T34CC 000:833 JLINK_ClrBPEx(BPHandle = 0x00000008)  returns 0x00 (0000ms, 0629ms total)
T34CC 000:833 JLINK_ReadReg(R0)  returns 0x00000001 (0000ms, 0629ms total)
T34CC 000:833 JLINK_WriteReg(R0, 0x0001BC00)  returns 0x00 (0000ms, 0629ms total)
T34CC 000:833 JLINK_WriteReg(R1, 0x00000400)  returns 0x00 (0000ms, 0629ms total)
T34CC 000:833 JLINK_WriteReg(R2, 0x000000FF)  returns 0x00 (0000ms, 0629ms total)
T34CC 000:833 JLINK_WriteReg(R3, 0x00000000)  returns 0x00 (0000ms, 0629ms total)
T34CC 000:833 JLINK_WriteReg(R4, 0x00000000)  returns 0x00 (0000ms, 0629ms total)
T34CC 000:833 JLINK_WriteReg(R5, 0x00000000)  returns 0x00 (0000ms, 0629ms total)
T34CC 000:833 JLINK_WriteReg(R6, 0x00000000)  returns 0x00 (0000ms, 0629ms total)
T34CC 000:833 JLINK_WriteReg(R7, 0x00000000)  returns 0x00 (0000ms, 0629ms total)
T34CC 000:833 JLINK_WriteReg(R8, 0x00000000)  returns 0x00 (0000ms, 0629ms total)
T34CC 000:833 JLINK_WriteReg(R9, 0x20000474)  returns 0x00 (0000ms, 0629ms total)
T34CC 000:833 JLINK_WriteReg(R10, 0x00000000)  returns 0x00 (0000ms, 0629ms total)
T34CC 000:833 JLINK_WriteReg(R11, 0x00000000)  returns 0x00 (0000ms, 0629ms total)
T34CC 000:833 JLINK_WriteReg(R12, 0x00000000)  returns 0x00 (0000ms, 0629ms total)
T34CC 000:833 JLINK_WriteReg(R13 (SP), 0x20002000)  returns 0x00 (0000ms, 0629ms total)
T34CC 000:833 JLINK_WriteReg(R14, 0x20000001)  returns 0x00 (0000ms, 0629ms total)
T34CC 000:833 JLINK_WriteReg(R15 (PC), 0x20000104)  returns 0x00 (0000ms, 0629ms total)
T34CC 000:833 JLINK_WriteReg(XPSR, 0x01000000)  returns 0x00 (0000ms, 0629ms total)
T34CC 000:833 JLINK_WriteReg(MSP, 0x20002000)  returns 0x00 (0000ms, 0629ms total)
T34CC 000:833 JLINK_WriteReg(PSP, 0x20002000)  returns 0x00 (0000ms, 0629ms total)
T34CC 000:833 JLINK_WriteReg(CFBP, 0x00000000)  returns 0x00 (0000ms, 0629ms total)
T34CC 000:833 JLINK_SetBPEx(Addr = 0x20000000, Type = 0xFFFFFFF2)  returns 0x00000009 (0000ms, 0629ms total)
T34CC 000:833 JLINK_Go() (0002ms, 0631ms total)
T34CC 000:835 JLINK_IsHalted()  returns FALSE (0001ms, 0632ms total)
T34CC 000:838 JLINK_IsHalted()  returns FALSE (0000ms, 0631ms total)
T34CC 000:840 JLINK_IsHalted()  returns FALSE (0000ms, 0631ms total)
T34CC 000:843 JLINK_IsHalted()  returns FALSE (0000ms, 0631ms total)
T34CC 000:844 JLINK_IsHalted()  returns FALSE (0000ms, 0631ms total)
T34CC 000:846 JLINK_IsHalted()  returns FALSE (0000ms, 0631ms total)
T34CC 000:847 JLINK_IsHalted()  returns FALSE (0001ms, 0632ms total)
T34CC 000:849 JLINK_IsHalted()  returns FALSE (0001ms, 0632ms total)
T34CC 000:851 JLINK_IsHalted()  returns FALSE (0001ms, 0632ms total)
T34CC 000:853 JLINK_IsHalted()  returns FALSE (0000ms, 0631ms total)
T34CC 000:854 JLINK_IsHalted()  returns FALSE (0001ms, 0632ms total)
T34CC 000:856 JLINK_IsHalted() -- CPU_ReadMem(2 bytes @ 0x20000000)  returns TRUE (0004ms, 0635ms total)
T34CC 000:860 JLINK_ReadReg(R15 (PC))  returns 0x20000000 (0000ms, 0631ms total)
T34CC 000:860 JLINK_ClrBPEx(BPHandle = 0x00000009)  returns 0x00 (0000ms, 0631ms total)
T34CC 000:860 JLINK_ReadReg(R0)  returns 0x00000000 (0000ms, 0631ms total)
T34CC 000:860 JLINK_WriteReg(R0, 0x0001C000)  returns 0x00 (0000ms, 0631ms total)
T34CC 000:860 JLINK_WriteReg(R1, 0x00000400)  returns 0x00 (0000ms, 0631ms total)
T34CC 000:860 JLINK_WriteReg(R2, 0x000000FF)  returns 0x00 (0000ms, 0631ms total)
T34CC 000:860 JLINK_WriteReg(R3, 0x00000000)  returns 0x00 (0000ms, 0631ms total)
T34CC 000:860 JLINK_WriteReg(R4, 0x00000000)  returns 0x00 (0000ms, 0631ms total)
T34CC 000:860 JLINK_WriteReg(R5, 0x00000000)  returns 0x00 (0000ms, 0631ms total)
T34CC 000:860 JLINK_WriteReg(R6, 0x00000000)  returns 0x00 (0000ms, 0631ms total)
T34CC 000:860 JLINK_WriteReg(R7, 0x00000000)  returns 0x00 (0000ms, 0631ms total)
T34CC 000:860 JLINK_WriteReg(R8, 0x00000000)  returns 0x00 (0000ms, 0631ms total)
T34CC 000:860 JLINK_WriteReg(R9, 0x20000474)  returns 0x00 (0000ms, 0631ms total)
T34CC 000:860 JLINK_WriteReg(R10, 0x00000000)  returns 0x00 (0000ms, 0631ms total)
T34CC 000:860 JLINK_WriteReg(R11, 0x00000000)  returns 0x00 (0000ms, 0631ms total)
T34CC 000:860 JLINK_WriteReg(R12, 0x00000000)  returns 0x00 (0000ms, 0631ms total)
T34CC 000:860 JLINK_WriteReg(R13 (SP), 0x20002000)  returns 0x00 (0000ms, 0631ms total)
T34CC 000:860 JLINK_WriteReg(R14, 0x20000001)  returns 0x00 (0000ms, 0631ms total)
T34CC 000:860 JLINK_WriteReg(R15 (PC), 0x20000188)  returns 0x00 (0000ms, 0631ms total)
T34CC 000:860 JLINK_WriteReg(XPSR, 0x01000000)  returns 0x00 (0000ms, 0631ms total)
T34CC 000:860 JLINK_WriteReg(MSP, 0x20002000)  returns 0x00 (0000ms, 0631ms total)
T34CC 000:860 JLINK_WriteReg(PSP, 0x20002000)  returns 0x00 (0000ms, 0631ms total)
T34CC 000:860 JLINK_WriteReg(CFBP, 0x00000000)  returns 0x00 (0000ms, 0631ms total)
T34CC 000:860 JLINK_SetBPEx(Addr = 0x20000000, Type = 0xFFFFFFF2)  returns 0x0000000A (0000ms, 0631ms total)
T34CC 000:860 JLINK_Go() (0002ms, 0633ms total)
T34CC 000:862 JLINK_IsHalted() -- CPU_ReadMem(2 bytes @ 0x20000000)  returns TRUE (0004ms, 0637ms total)
T34CC 000:866 JLINK_ReadReg(R15 (PC))  returns 0x20000000 (0000ms, 0633ms total)
T34CC 000:866 JLINK_ClrBPEx(BPHandle = 0x0000000A)  returns 0x00 (0000ms, 0633ms total)
T34CC 000:866 JLINK_ReadReg(R0)  returns 0x00000001 (0000ms, 0633ms total)
T34CC 000:866 JLINK_WriteReg(R0, 0x0001C000)  returns 0x00 (0000ms, 0633ms total)
T34CC 000:866 JLINK_WriteReg(R1, 0x00000400)  returns 0x00 (0000ms, 0633ms total)
T34CC 000:866 JLINK_WriteReg(R2, 0x000000FF)  returns 0x00 (0000ms, 0633ms total)
T34CC 000:866 JLINK_WriteReg(R3, 0x00000000)  returns 0x00 (0000ms, 0633ms total)
T34CC 000:866 JLINK_WriteReg(R4, 0x00000000)  returns 0x00 (0000ms, 0633ms total)
T34CC 000:866 JLINK_WriteReg(R5, 0x00000000)  returns 0x00 (0000ms, 0633ms total)
T34CC 000:866 JLINK_WriteReg(R6, 0x00000000)  returns 0x00 (0000ms, 0633ms total)
T34CC 000:866 JLINK_WriteReg(R7, 0x00000000)  returns 0x00 (0000ms, 0633ms total)
T34CC 000:866 JLINK_WriteReg(R8, 0x00000000)  returns 0x00 (0000ms, 0633ms total)
T34CC 000:866 JLINK_WriteReg(R9, 0x20000474)  returns 0x00 (0000ms, 0633ms total)
T34CC 000:866 JLINK_WriteReg(R10, 0x00000000)  returns 0x00 (0000ms, 0633ms total)
T34CC 000:866 JLINK_WriteReg(R11, 0x00000000)  returns 0x00 (0000ms, 0633ms total)
T34CC 000:866 JLINK_WriteReg(R12, 0x00000000)  returns 0x00 (0000ms, 0633ms total)
T34CC 000:866 JLINK_WriteReg(R13 (SP), 0x20002000)  returns 0x00 (0000ms, 0633ms total)
T34CC 000:866 JLINK_WriteReg(R14, 0x20000001)  returns 0x00 (0000ms, 0633ms total)
T34CC 000:866 JLINK_WriteReg(R15 (PC), 0x20000104)  returns 0x00 (0000ms, 0633ms total)
T34CC 000:866 JLINK_WriteReg(XPSR, 0x01000000)  returns 0x00 (0000ms, 0633ms total)
T34CC 000:866 JLINK_WriteReg(MSP, 0x20002000)  returns 0x00 (0000ms, 0633ms total)
T34CC 000:866 JLINK_WriteReg(PSP, 0x20002000)  returns 0x00 (0000ms, 0633ms total)
T34CC 000:866 JLINK_WriteReg(CFBP, 0x00000000)  returns 0x00 (0000ms, 0633ms total)
T34CC 000:866 JLINK_SetBPEx(Addr = 0x20000000, Type = 0xFFFFFFF2)  returns 0x0000000B (0000ms, 0633ms total)
T34CC 000:866 JLINK_Go() (0002ms, 0635ms total)
T34CC 000:868 JLINK_IsHalted()  returns FALSE (0001ms, 0636ms total)
T34CC 000:871 JLINK_IsHalted()  returns FALSE (0000ms, 0635ms total)
T34CC 000:874 JLINK_IsHalted()  returns FALSE (0001ms, 0636ms total)
T34CC 000:877 JLINK_IsHalted()  returns FALSE (0000ms, 0635ms total)
T34CC 000:879 JLINK_IsHalted()  returns FALSE (0000ms, 0635ms total)
T34CC 000:881 JLINK_IsHalted()  returns FALSE (0000ms, 0635ms total)
T34CC 000:882 JLINK_IsHalted()  returns FALSE (0001ms, 0636ms total)
T34CC 000:884 JLINK_IsHalted()  returns FALSE (0001ms, 0636ms total)
T34CC 000:886 JLINK_IsHalted()  returns FALSE (0000ms, 0635ms total)
T34CC 000:888 JLINK_IsHalted()  returns FALSE (0000ms, 0635ms total)
T34CC 000:890 JLINK_IsHalted() -- CPU_ReadMem(2 bytes @ 0x20000000)  returns TRUE (0003ms, 0638ms total)
T34CC 000:893 JLINK_ReadReg(R15 (PC))  returns 0x20000000 (0000ms, 0635ms total)
T34CC 000:893 JLINK_ClrBPEx(BPHandle = 0x0000000B)  returns 0x00 (0000ms, 0635ms total)
T34CC 000:893 JLINK_ReadReg(R0)  returns 0x00000000 (0000ms, 0635ms total)
T34CC 000:894 JLINK_WriteReg(R0, 0x0001C400)  returns 0x00 (0000ms, 0635ms total)
T34CC 000:894 JLINK_WriteReg(R1, 0x00000400)  returns 0x00 (0000ms, 0635ms total)
T34CC 000:894 JLINK_WriteReg(R2, 0x000000FF)  returns 0x00 (0000ms, 0635ms total)
T34CC 000:894 JLINK_WriteReg(R3, 0x00000000)  returns 0x00 (0000ms, 0635ms total)
T34CC 000:894 JLINK_WriteReg(R4, 0x00000000)  returns 0x00 (0000ms, 0635ms total)
T34CC 000:894 JLINK_WriteReg(R5, 0x00000000)  returns 0x00 (0000ms, 0635ms total)
T34CC 000:894 JLINK_WriteReg(R6, 0x00000000)  returns 0x00 (0000ms, 0635ms total)
T34CC 000:894 JLINK_WriteReg(R7, 0x00000000)  returns 0x00 (0000ms, 0635ms total)
T34CC 000:894 JLINK_WriteReg(R8, 0x00000000)  returns 0x00 (0000ms, 0635ms total)
T34CC 000:894 JLINK_WriteReg(R9, 0x20000474)  returns 0x00 (0000ms, 0635ms total)
T34CC 000:894 JLINK_WriteReg(R10, 0x00000000)  returns 0x00 (0000ms, 0635ms total)
T34CC 000:894 JLINK_WriteReg(R11, 0x00000000)  returns 0x00 (0000ms, 0635ms total)
T34CC 000:894 JLINK_WriteReg(R12, 0x00000000)  returns 0x00 (0000ms, 0635ms total)
T34CC 000:894 JLINK_WriteReg(R13 (SP), 0x20002000)  returns 0x00 (0000ms, 0635ms total)
T34CC 000:894 JLINK_WriteReg(R14, 0x20000001)  returns 0x00 (0000ms, 0635ms total)
T34CC 000:894 JLINK_WriteReg(R15 (PC), 0x20000188)  returns 0x00 (0000ms, 0635ms total)
T34CC 000:894 JLINK_WriteReg(XPSR, 0x01000000)  returns 0x00 (0000ms, 0635ms total)
T34CC 000:894 JLINK_WriteReg(MSP, 0x20002000)  returns 0x00 (0000ms, 0635ms total)
T34CC 000:894 JLINK_WriteReg(PSP, 0x20002000)  returns 0x00 (0000ms, 0635ms total)
T34CC 000:894 JLINK_WriteReg(CFBP, 0x00000000)  returns 0x00 (0000ms, 0635ms total)
T34CC 000:894 JLINK_SetBPEx(Addr = 0x20000000, Type = 0xFFFFFFF2)  returns 0x0000000C (0000ms, 0635ms total)
T34CC 000:894 JLINK_Go() (0002ms, 0637ms total)
T34CC 000:896 JLINK_IsHalted() -- CPU_ReadMem(2 bytes @ 0x20000000)  returns TRUE (0004ms, 0641ms total)
T34CC 000:900 JLINK_ReadReg(R15 (PC))  returns 0x20000000 (0000ms, 0637ms total)
T34CC 000:900 JLINK_ClrBPEx(BPHandle = 0x0000000C)  returns 0x00 (0000ms, 0637ms total)
T34CC 000:900 JLINK_ReadReg(R0)  returns 0x00000001 (0000ms, 0637ms total)
T34CC 000:900 JLINK_WriteReg(R0, 0x0001C400)  returns 0x00 (0000ms, 0637ms total)
T34CC 000:900 JLINK_WriteReg(R1, 0x00000400)  returns 0x00 (0000ms, 0637ms total)
T34CC 000:900 JLINK_WriteReg(R2, 0x000000FF)  returns 0x00 (0000ms, 0637ms total)
T34CC 000:900 JLINK_WriteReg(R3, 0x00000000)  returns 0x00 (0000ms, 0637ms total)
T34CC 000:900 JLINK_WriteReg(R4, 0x00000000)  returns 0x00 (0000ms, 0637ms total)
T34CC 000:900 JLINK_WriteReg(R5, 0x00000000)  returns 0x00 (0000ms, 0637ms total)
T34CC 000:900 JLINK_WriteReg(R6, 0x00000000)  returns 0x00 (0000ms, 0637ms total)
T34CC 000:900 JLINK_WriteReg(R7, 0x00000000)  returns 0x00 (0000ms, 0637ms total)
T34CC 000:900 JLINK_WriteReg(R8, 0x00000000)  returns 0x00 (0000ms, 0637ms total)
T34CC 000:900 JLINK_WriteReg(R9, 0x20000474)  returns 0x00 (0000ms, 0637ms total)
T34CC 000:900 JLINK_WriteReg(R10, 0x00000000)  returns 0x00 (0000ms, 0637ms total)
T34CC 000:900 JLINK_WriteReg(R11, 0x00000000)  returns 0x00 (0000ms, 0637ms total)
T34CC 000:900 JLINK_WriteReg(R12, 0x00000000)  returns 0x00 (0000ms, 0637ms total)
T34CC 000:900 JLINK_WriteReg(R13 (SP), 0x20002000)  returns 0x00 (0000ms, 0637ms total)
T34CC 000:900 JLINK_WriteReg(R14, 0x20000001)  returns 0x00 (0000ms, 0637ms total)
T34CC 000:900 JLINK_WriteReg(R15 (PC), 0x20000104)  returns 0x00 (0000ms, 0637ms total)
T34CC 000:900 JLINK_WriteReg(XPSR, 0x01000000)  returns 0x00 (0000ms, 0637ms total)
T34CC 000:900 JLINK_WriteReg(MSP, 0x20002000)  returns 0x00 (0000ms, 0637ms total)
T34CC 000:900 JLINK_WriteReg(PSP, 0x20002000)  returns 0x00 (0000ms, 0637ms total)
T34CC 000:900 JLINK_WriteReg(CFBP, 0x00000000)  returns 0x00 (0000ms, 0637ms total)
T34CC 000:900 JLINK_SetBPEx(Addr = 0x20000000, Type = 0xFFFFFFF2)  returns 0x0000000D (0000ms, 0637ms total)
T34CC 000:900 JLINK_Go() (0001ms, 0638ms total)
T34CC 000:901 JLINK_IsHalted()  returns FALSE (0001ms, 0639ms total)
T34CC 000:904 JLINK_IsHalted()  returns FALSE (0001ms, 0639ms total)
T34CC 000:906 JLINK_IsHalted()  returns FALSE (0000ms, 0638ms total)
T34CC 000:907 JLINK_IsHalted()  returns FALSE (0001ms, 0639ms total)
T34CC 000:909 JLINK_IsHalted()  returns FALSE (0001ms, 0639ms total)
T34CC 000:911 JLINK_IsHalted()  returns FALSE (0000ms, 0638ms total)
T34CC 000:913 JLINK_IsHalted()  returns FALSE (0000ms, 0638ms total)
T34CC 000:914 JLINK_IsHalted()  returns FALSE (0001ms, 0639ms total)
T34CC 000:916 JLINK_IsHalted()  returns FALSE (0001ms, 0639ms total)
T34CC 000:918 JLINK_IsHalted()  returns FALSE (0001ms, 0639ms total)
T34CC 000:924 JLINK_IsHalted() -- CPU_ReadMem(2 bytes @ 0x20000000)  returns TRUE (0004ms, 0642ms total)
T34CC 000:928 JLINK_ReadReg(R15 (PC))  returns 0x20000000 (0000ms, 0638ms total)
T34CC 000:928 JLINK_ClrBPEx(BPHandle = 0x0000000D)  returns 0x00 (0000ms, 0638ms total)
T34CC 000:928 JLINK_ReadReg(R0)  returns 0x00000000 (0000ms, 0638ms total)
T34CC 000:928 JLINK_WriteReg(R0, 0x0001C800)  returns 0x00 (0000ms, 0638ms total)
T34CC 000:928 JLINK_WriteReg(R1, 0x00000400)  returns 0x00 (0000ms, 0638ms total)
T34CC 000:928 JLINK_WriteReg(R2, 0x000000FF)  returns 0x00 (0000ms, 0638ms total)
T34CC 000:928 JLINK_WriteReg(R3, 0x00000000)  returns 0x00 (0000ms, 0638ms total)
T34CC 000:928 JLINK_WriteReg(R4, 0x00000000)  returns 0x00 (0000ms, 0638ms total)
T34CC 000:928 JLINK_WriteReg(R5, 0x00000000)  returns 0x00 (0000ms, 0638ms total)
T34CC 000:928 JLINK_WriteReg(R6, 0x00000000)  returns 0x00 (0000ms, 0638ms total)
T34CC 000:928 JLINK_WriteReg(R7, 0x00000000)  returns 0x00 (0000ms, 0638ms total)
T34CC 000:928 JLINK_WriteReg(R8, 0x00000000)  returns 0x00 (0000ms, 0638ms total)
T34CC 000:928 JLINK_WriteReg(R9, 0x20000474)  returns 0x00 (0000ms, 0638ms total)
T34CC 000:928 JLINK_WriteReg(R10, 0x00000000)  returns 0x00 (0000ms, 0638ms total)
T34CC 000:928 JLINK_WriteReg(R11, 0x00000000)  returns 0x00 (0000ms, 0638ms total)
T34CC 000:928 JLINK_WriteReg(R12, 0x00000000)  returns 0x00 (0000ms, 0638ms total)
T34CC 000:928 JLINK_WriteReg(R13 (SP), 0x20002000)  returns 0x00 (0000ms, 0638ms total)
T34CC 000:928 JLINK_WriteReg(R14, 0x20000001)  returns 0x00 (0000ms, 0638ms total)
T34CC 000:928 JLINK_WriteReg(R15 (PC), 0x20000188)  returns 0x00 (0000ms, 0638ms total)
T34CC 000:928 JLINK_WriteReg(XPSR, 0x01000000)  returns 0x00 (0000ms, 0638ms total)
T34CC 000:928 JLINK_WriteReg(MSP, 0x20002000)  returns 0x00 (0000ms, 0638ms total)
T34CC 000:928 JLINK_WriteReg(PSP, 0x20002000)  returns 0x00 (0000ms, 0638ms total)
T34CC 000:928 JLINK_WriteReg(CFBP, 0x00000000)  returns 0x00 (0000ms, 0638ms total)
T34CC 000:928 JLINK_SetBPEx(Addr = 0x20000000, Type = 0xFFFFFFF2)  returns 0x0000000E (0000ms, 0638ms total)
T34CC 000:928 JLINK_Go() (0002ms, 0640ms total)
T34CC 000:930 JLINK_IsHalted() -- CPU_ReadMem(2 bytes @ 0x20000000)  returns TRUE (0004ms, 0644ms total)
T34CC 000:934 JLINK_ReadReg(R15 (PC))  returns 0x20000000 (0000ms, 0640ms total)
T34CC 000:934 JLINK_ClrBPEx(BPHandle = 0x0000000E)  returns 0x00 (0000ms, 0640ms total)
T34CC 000:934 JLINK_ReadReg(R0)  returns 0x00000001 (0000ms, 0640ms total)
T34CC 000:934 JLINK_WriteReg(R0, 0x0001C800)  returns 0x00 (0000ms, 0640ms total)
T34CC 000:934 JLINK_WriteReg(R1, 0x00000400)  returns 0x00 (0000ms, 0640ms total)
T34CC 000:934 JLINK_WriteReg(R2, 0x000000FF)  returns 0x00 (0000ms, 0640ms total)
T34CC 000:934 JLINK_WriteReg(R3, 0x00000000)  returns 0x00 (0000ms, 0640ms total)
T34CC 000:934 JLINK_WriteReg(R4, 0x00000000)  returns 0x00 (0000ms, 0640ms total)
T34CC 000:934 JLINK_WriteReg(R5, 0x00000000)  returns 0x00 (0000ms, 0640ms total)
T34CC 000:934 JLINK_WriteReg(R6, 0x00000000)  returns 0x00 (0000ms, 0640ms total)
T34CC 000:934 JLINK_WriteReg(R7, 0x00000000)  returns 0x00 (0000ms, 0640ms total)
T34CC 000:934 JLINK_WriteReg(R8, 0x00000000)  returns 0x00 (0000ms, 0640ms total)
T34CC 000:934 JLINK_WriteReg(R9, 0x20000474)  returns 0x00 (0000ms, 0640ms total)
T34CC 000:934 JLINK_WriteReg(R10, 0x00000000)  returns 0x00 (0000ms, 0640ms total)
T34CC 000:934 JLINK_WriteReg(R11, 0x00000000)  returns 0x00 (0000ms, 0640ms total)
T34CC 000:934 JLINK_WriteReg(R12, 0x00000000)  returns 0x00 (0000ms, 0640ms total)
T34CC 000:934 JLINK_WriteReg(R13 (SP), 0x20002000)  returns 0x00 (0000ms, 0640ms total)
T34CC 000:934 JLINK_WriteReg(R14, 0x20000001)  returns 0x00 (0000ms, 0640ms total)
T34CC 000:934 JLINK_WriteReg(R15 (PC), 0x20000104)  returns 0x00 (0000ms, 0640ms total)
T34CC 000:934 JLINK_WriteReg(XPSR, 0x01000000)  returns 0x00 (0000ms, 0640ms total)
T34CC 000:934 JLINK_WriteReg(MSP, 0x20002000)  returns 0x00 (0000ms, 0640ms total)
T34CC 000:934 JLINK_WriteReg(PSP, 0x20002000)  returns 0x00 (0000ms, 0640ms total)
T34CC 000:934 JLINK_WriteReg(CFBP, 0x00000000)  returns 0x00 (0000ms, 0640ms total)
T34CC 000:934 JLINK_SetBPEx(Addr = 0x20000000, Type = 0xFFFFFFF2)  returns 0x0000000F (0000ms, 0640ms total)
T34CC 000:934 JLINK_Go() (0002ms, 0642ms total)
T34CC 000:936 JLINK_IsHalted()  returns FALSE (0000ms, 0642ms total)
T34CC 000:940 JLINK_IsHalted()  returns FALSE (0001ms, 0643ms total)
T34CC 000:942 JLINK_IsHalted()  returns FALSE (0000ms, 0642ms total)
T34CC 000:943 JLINK_IsHalted()  returns FALSE (0001ms, 0643ms total)
T34CC 000:945 JLINK_IsHalted()  returns FALSE (0001ms, 0643ms total)
T34CC 000:947 JLINK_IsHalted()  returns FALSE (0001ms, 0643ms total)
T34CC 000:951 JLINK_IsHalted()  returns FALSE (0001ms, 0643ms total)
T34CC 000:953 JLINK_IsHalted()  returns FALSE (0001ms, 0643ms total)
T34CC 000:955 JLINK_IsHalted()  returns FALSE (0000ms, 0642ms total)
T34CC 000:956 JLINK_IsHalted() -- CPU_ReadMem(2 bytes @ 0x20000000)  returns TRUE (0004ms, 0646ms total)
T34CC 000:960 JLINK_ReadReg(R15 (PC))  returns 0x20000000 (0000ms, 0642ms total)
T34CC 000:960 JLINK_ClrBPEx(BPHandle = 0x0000000F)  returns 0x00 (0000ms, 0642ms total)
T34CC 000:960 JLINK_ReadReg(R0)  returns 0x00000000 (0000ms, 0642ms total)
T34CC 000:960 JLINK_WriteReg(R0, 0x0001CC00)  returns 0x00 (0000ms, 0642ms total)
T34CC 000:960 JLINK_WriteReg(R1, 0x00000400)  returns 0x00 (0000ms, 0642ms total)
T34CC 000:960 JLINK_WriteReg(R2, 0x000000FF)  returns 0x00 (0000ms, 0642ms total)
T34CC 000:960 JLINK_WriteReg(R3, 0x00000000)  returns 0x00 (0000ms, 0642ms total)
T34CC 000:960 JLINK_WriteReg(R4, 0x00000000)  returns 0x00 (0000ms, 0642ms total)
T34CC 000:960 JLINK_WriteReg(R5, 0x00000000)  returns 0x00 (0000ms, 0642ms total)
T34CC 000:960 JLINK_WriteReg(R6, 0x00000000)  returns 0x00 (0000ms, 0642ms total)
T34CC 000:960 JLINK_WriteReg(R7, 0x00000000)  returns 0x00 (0000ms, 0642ms total)
T34CC 000:960 JLINK_WriteReg(R8, 0x00000000)  returns 0x00 (0000ms, 0642ms total)
T34CC 000:960 JLINK_WriteReg(R9, 0x20000474)  returns 0x00 (0000ms, 0642ms total)
T34CC 000:960 JLINK_WriteReg(R10, 0x00000000)  returns 0x00 (0000ms, 0642ms total)
T34CC 000:960 JLINK_WriteReg(R11, 0x00000000)  returns 0x00 (0000ms, 0642ms total)
T34CC 000:960 JLINK_WriteReg(R12, 0x00000000)  returns 0x00 (0000ms, 0642ms total)
T34CC 000:960 JLINK_WriteReg(R13 (SP), 0x20002000)  returns 0x00 (0001ms, 0643ms total)
T34CC 000:961 JLINK_WriteReg(R14, 0x20000001)  returns 0x00 (0000ms, 0643ms total)
T34CC 000:961 JLINK_WriteReg(R15 (PC), 0x20000188)  returns 0x00 (0000ms, 0643ms total)
T34CC 000:961 JLINK_WriteReg(XPSR, 0x01000000)  returns 0x00 (0000ms, 0643ms total)
T34CC 000:961 JLINK_WriteReg(MSP, 0x20002000)  returns 0x00 (0000ms, 0643ms total)
T34CC 000:961 JLINK_WriteReg(PSP, 0x20002000)  returns 0x00 (0000ms, 0643ms total)
T34CC 000:961 JLINK_WriteReg(CFBP, 0x00000000)  returns 0x00 (0000ms, 0643ms total)
T34CC 000:961 JLINK_SetBPEx(Addr = 0x20000000, Type = 0xFFFFFFF2)  returns 0x00000010 (0000ms, 0643ms total)
T34CC 000:961 JLINK_Go() (0002ms, 0645ms total)
T34CC 000:963 JLINK_IsHalted() -- CPU_ReadMem(2 bytes @ 0x20000000)  returns TRUE (0003ms, 0648ms total)
T34CC 000:966 JLINK_ReadReg(R15 (PC))  returns 0x20000000 (0000ms, 0645ms total)
T34CC 000:966 JLINK_ClrBPEx(BPHandle = 0x00000010)  returns 0x00 (0000ms, 0645ms total)
T34CC 000:966 JLINK_ReadReg(R0)  returns 0x00000001 (0000ms, 0645ms total)
T34CC 000:966 JLINK_WriteReg(R0, 0x0001CC00)  returns 0x00 (0000ms, 0645ms total)
T34CC 000:966 JLINK_WriteReg(R1, 0x00000400)  returns 0x00 (0000ms, 0645ms total)
T34CC 000:966 JLINK_WriteReg(R2, 0x000000FF)  returns 0x00 (0000ms, 0645ms total)
T34CC 000:966 JLINK_WriteReg(R3, 0x00000000)  returns 0x00 (0000ms, 0645ms total)
T34CC 000:966 JLINK_WriteReg(R4, 0x00000000)  returns 0x00 (0000ms, 0645ms total)
T34CC 000:966 JLINK_WriteReg(R5, 0x00000000)  returns 0x00 (0000ms, 0645ms total)
T34CC 000:966 JLINK_WriteReg(R6, 0x00000000)  returns 0x00 (0000ms, 0645ms total)
T34CC 000:966 JLINK_WriteReg(R7, 0x00000000)  returns 0x00 (0000ms, 0645ms total)
T34CC 000:966 JLINK_WriteReg(R8, 0x00000000)  returns 0x00 (0000ms, 0645ms total)
T34CC 000:966 JLINK_WriteReg(R9, 0x20000474)  returns 0x00 (0000ms, 0645ms total)
T34CC 000:966 JLINK_WriteReg(R10, 0x00000000)  returns 0x00 (0000ms, 0645ms total)
T34CC 000:966 JLINK_WriteReg(R11, 0x00000000)  returns 0x00 (0000ms, 0645ms total)
T34CC 000:966 JLINK_WriteReg(R12, 0x00000000)  returns 0x00 (0000ms, 0645ms total)
T34CC 000:966 JLINK_WriteReg(R13 (SP), 0x20002000)  returns 0x00 (0000ms, 0645ms total)
T34CC 000:966 JLINK_WriteReg(R14, 0x20000001)  returns 0x00 (0000ms, 0645ms total)
T34CC 000:966 JLINK_WriteReg(R15 (PC), 0x20000104)  returns 0x00 (0000ms, 0645ms total)
T34CC 000:966 JLINK_WriteReg(XPSR, 0x01000000)  returns 0x00 (0000ms, 0645ms total)
T34CC 000:966 JLINK_WriteReg(MSP, 0x20002000)  returns 0x00 (0000ms, 0645ms total)
T34CC 000:966 JLINK_WriteReg(PSP, 0x20002000)  returns 0x00 (0000ms, 0645ms total)
T34CC 000:966 JLINK_WriteReg(CFBP, 0x00000000)  returns 0x00 (0000ms, 0645ms total)
T34CC 000:966 JLINK_SetBPEx(Addr = 0x20000000, Type = 0xFFFFFFF2)  returns 0x00000011 (0000ms, 0645ms total)
T34CC 000:966 JLINK_Go() (0002ms, 0647ms total)
T34CC 000:968 JLINK_IsHalted()  returns FALSE (0000ms, 0647ms total)
T34CC 000:970 JLINK_IsHalted()  returns FALSE (0000ms, 0647ms total)
T34CC 000:972 JLINK_IsHalted()  returns FALSE (0000ms, 0647ms total)
T34CC 000:974 JLINK_IsHalted()  returns FALSE (0000ms, 0647ms total)
T34CC 000:975 JLINK_IsHalted()  returns FALSE (0001ms, 0648ms total)
T34CC 000:977 JLINK_IsHalted()  returns FALSE (0000ms, 0647ms total)
T34CC 000:978 JLINK_IsHalted()  returns FALSE (0001ms, 0648ms total)
T34CC 000:980 JLINK_IsHalted()  returns FALSE (0000ms, 0647ms total)
T34CC 000:982 JLINK_IsHalted()  returns FALSE (0000ms, 0647ms total)
T34CC 000:984 JLINK_IsHalted()  returns FALSE (0001ms, 0648ms total)
T34CC 000:988 JLINK_IsHalted()  returns FALSE (0001ms, 0648ms total)
T34CC 000:990 JLINK_IsHalted() -- CPU_ReadMem(2 bytes @ 0x20000000)  returns TRUE (0003ms, 0650ms total)
T34CC 000:993 JLINK_ReadReg(R15 (PC))  returns 0x20000000 (0000ms, 0647ms total)
T34CC 000:993 JLINK_ClrBPEx(BPHandle = 0x00000011)  returns 0x00 (0000ms, 0647ms total)
T34CC 000:993 JLINK_ReadReg(R0)  returns 0x00000000 (0000ms, 0647ms total)
T34CC 000:993 JLINK_WriteReg(R0, 0x0001D000)  returns 0x00 (0000ms, 0647ms total)
T34CC 000:993 JLINK_WriteReg(R1, 0x00000400)  returns 0x00 (0000ms, 0647ms total)
T34CC 000:993 JLINK_WriteReg(R2, 0x000000FF)  returns 0x00 (0000ms, 0647ms total)
T34CC 000:993 JLINK_WriteReg(R3, 0x00000000)  returns 0x00 (0000ms, 0647ms total)
T34CC 000:993 JLINK_WriteReg(R4, 0x00000000)  returns 0x00 (0000ms, 0647ms total)
T34CC 000:993 JLINK_WriteReg(R5, 0x00000000)  returns 0x00 (0001ms, 0648ms total)
T34CC 000:994 JLINK_WriteReg(R6, 0x00000000)  returns 0x00 (0000ms, 0648ms total)
T34CC 000:994 JLINK_WriteReg(R7, 0x00000000)  returns 0x00 (0000ms, 0648ms total)
T34CC 000:994 JLINK_WriteReg(R8, 0x00000000)  returns 0x00 (0000ms, 0648ms total)
T34CC 000:994 JLINK_WriteReg(R9, 0x20000474)  returns 0x00 (0000ms, 0648ms total)
T34CC 000:994 JLINK_WriteReg(R10, 0x00000000)  returns 0x00 (0000ms, 0648ms total)
T34CC 000:994 JLINK_WriteReg(R11, 0x00000000)  returns 0x00 (0000ms, 0648ms total)
T34CC 000:994 JLINK_WriteReg(R12, 0x00000000)  returns 0x00 (0000ms, 0648ms total)
T34CC 000:994 JLINK_WriteReg(R13 (SP), 0x20002000)  returns 0x00 (0000ms, 0648ms total)
T34CC 000:994 JLINK_WriteReg(R14, 0x20000001)  returns 0x00 (0000ms, 0648ms total)
T34CC 000:994 JLINK_WriteReg(R15 (PC), 0x20000188)  returns 0x00 (0000ms, 0648ms total)
T34CC 000:994 JLINK_WriteReg(XPSR, 0x01000000)  returns 0x00 (0000ms, 0648ms total)
T34CC 000:994 JLINK_WriteReg(MSP, 0x20002000)  returns 0x00 (0000ms, 0648ms total)
T34CC 000:994 JLINK_WriteReg(PSP, 0x20002000)  returns 0x00 (0000ms, 0648ms total)
T34CC 000:994 JLINK_WriteReg(CFBP, 0x00000000)  returns 0x00 (0000ms, 0648ms total)
T34CC 000:994 JLINK_SetBPEx(Addr = 0x20000000, Type = 0xFFFFFFF2)  returns 0x00000012 (0000ms, 0648ms total)
T34CC 000:994 JLINK_Go() (0002ms, 0650ms total)
T34CC 000:996 JLINK_IsHalted() -- CPU_ReadMem(2 bytes @ 0x20000000)  returns TRUE (0003ms, 0653ms total)
T34CC 000:999 JLINK_ReadReg(R15 (PC))  returns 0x20000000 (0000ms, 0650ms total)
T34CC 000:999 JLINK_ClrBPEx(BPHandle = 0x00000012)  returns 0x00 (0000ms, 0650ms total)
T34CC 000:999 JLINK_ReadReg(R0)  returns 0x00000001 (0000ms, 0650ms total)
